
2016/2/24 15:52:48	익퐊쵍밐	15 04 00 00 00 02 72 DF
2016/2/24 15:52:48	쫩퉾쵍밐	150404012E010CCFE5
2016/2/24 15:53:59	익퐊쵍밐	14 04 00 00 00 02 73 0E
2016/2/24 15:53:59	쫩퉾쵍밐	
2016/2/24 15:54:02	익퐊쵍밐	14 04 00 00 00 02 73 0E
2016/2/24 15:54:02	쫩퉾쵍밐	050402001188FC0604021065C11B900402013D84AC8F0402013791698E0402014FAC8B8D0402014E294B8C0402010954B9
2016/2/24 15:54:04	익퐊쵍밐	14 04 00 00 00 02 73 0E
2016/2/24 15:54:04	쫩퉾쵍밐	3C0402017E5545
2016/2/24 15:54:05	익퐊쵍밐	14 04 00 00 00 02 73 0E
2016/2/24 15:54:05	쫩퉾쵍밐	16040401BF02562DC3150404012D010DFE25
2016/2/24 15:54:12	익퐊쵍밐	14 04 00 00 00 02 73 0E
2016/2/24 15:54:12	쫩퉾쵍밐	
2016/2/24 15:54:24	익퐊쵍밐	16 04 00 00 00 02 72 EC
2016/2/24 15:54:24	쫩퉾쵍밐	
2016/2/24 15:54:26	익퐊쵍밐	16 04 00 00 00 02 72 EC
2016/2/24 15:54:26	쫩퉾쵍밐	16040401BF02562DC3
2016/2/24 15:54:27	익퐊쵍밐	16 04 00 00 00 02 72 EC
2016/2/24 15:54:27	쫩퉾쵍밐	16040401BF02562DC3
2016/2/24 16:01:01	익퐊쵍밐	05 04 00 01 00 01 61 8E
2016/2/24 16:01:01	쫩퉾쵍밐	
2016/2/24 16:01:03	익퐊쵍밐	05 04 00 01 00 01 61 8E
2016/2/24 16:01:03	쫩퉾쵍밐	05040210DD8569
2016/2/24 16:01:04	익퐊쵍밐	05 04 00 01 00 01 61 8E
2016/2/24 16:01:04	쫩퉾쵍밐	05040210DD8569
2016/2/24 16:01:15	익퐊쵍밐	06 04 00 00 00 01 30 7D
2016/2/24 16:01:15	쫩퉾쵍밐	0604021065C11B
2016/2/24 16:01:16	익퐊쵍밐	06 04 00 00 00 01 30 7D
2016/2/24 16:01:16	쫩퉾쵍밐	060402106C011D
2016/2/24 16:06:16	익퐊쵍밐	05 04 00 01 00 01 61 8E
2016/2/24 16:06:16	쫩퉾쵍밐	050402000048F0
2016/2/24 16:06:17	익퐊쵍밐	05 04 00 01 00 01 61 8E
2016/2/24 16:06:17	쫩퉾쵍밐	050402000048F0
2016/2/24 16:06:17	익퐊쵍밐	05 04 00 01 00 01 61 8E
2016/2/24 16:06:17	쫩퉾쵍밐	050402000048F0
2016/2/24 16:06:19	익퐊쵍밐	05 04 00 01 00 01 61 8E
2016/2/24 16:06:19	쫩퉾쵍밐	050402000048F0
2016/2/24 16:06:19	익퐊쵍밐	05 04 00 01 00 01 61 8E
2016/2/24 16:06:19	쫩퉾쵍밐	050402000048F0
2016/2/24 16:06:20	익퐊쵍밐	06 04 00 00 00 01 30 7D
2016/2/24 16:06:20	쫩퉾쵍밐	060402106C011D
2016/2/24 16:06:21	익퐊쵍밐	06 04 00 00 00 01 30 7D
2016/2/24 16:06:21	쫩퉾쵍밐	06040210E9
2016/2/24 16:06:22	익퐊쵍밐	06 04 00 00 00 01 30 7D
2016/2/24 16:06:22	쫩퉾쵍밐	0604021069C11E
2016/2/24 16:06:22	익퐊쵍밐	06 04 00 00 00 01 30 7D
2016/2/24 16:06:22	쫩퉾쵍밐	0604021069C11E
2016/3/2 16:20:15	익퐊쵍밐	8C 04 00 00 00 01 2F 17
2016/3/2 16:20:15	쫩퉾쵍밐	8C0402011A1574
2016/3/2 20:29:25	익퐊쵍밐	8C 04 00 00 00 01 2F 17
2016/3/2 20:29:25	쫩퉾쵍밐	8C0402011A1574
2016-7-26 15:52:42	익퐊쵍밐	8C 04 00 00 00 01 2F 17
2016-7-26 15:52:42	쫩퉾쵍밐	8C040201261565
2016-7-26 16:05:31	익퐊쵍밐	8C 04 00 00 00 01 2F 17
2016-7-26 16:05:31	쫩퉾쵍밐	8C040201261565